T7188 000:359.027   SEGGER J-Link V8.24 Log File
T7188 000:359.220   DLL Compiled: Mar 26 2025 15:29:23
T7188 000:359.244   Logging started @ 2025-11-05 12:01
T7188 000:359.266   Process: D:\Keil_v5\UV4\UV4.exe
T7188 000:359.295 - 359.285ms 
T7188 000:359.319 JLINK_SetWarnOutHandler(...)
T7188 000:359.339 - 0.021ms 
T7188 000:359.360 JLINK_OpenEx(...)
T7188 000:364.835   Firmware: J-Link V11 compiled Dec 14 2022 09:09:01
T7188 000:366.269   Firmware: J-Link V11 compiled Dec 14 2022 09:09:01
T7188 000:385.479   Hardware: V11.00
T7188 000:385.584   S/N: 601012352
T7188 000:385.644   OEM: SEGGER
T7188 000:385.704   Feature(s): GDB, JFlash, FlashDL, FLashBP, RDI
T7188 000:386.923   Bootloader: (FW returned invalid version)
T7188 000:387.499   USB speed mode: High speed (480 MBit/s)
T7188 000:387.890   TELNET listener socket opened on port 19021
T7188 000:388.073   WEBSRV WEBSRV_Init(): Starting webserver thread(s)
T7188 000:388.386   WEBSRV Webserver running on local port 19080
T7188 000:388.634   Looking for J-Link GUI Server exe at: D:\Keil_v5\ARM\Segger\JLinkGUIServer.exe
T7188 000:388.707   Looking for J-Link GUI Server exe at: D:\Program Files\SEGGER\JLink_V864\JLinkGUIServer.exe
T7188 000:691.090   Failed to connect to J-Link GUI Server.
T7188 000:691.163 - 331.786ms returns "O.K."
T7188 000:691.192 JLINK_SetErrorOutHandler(...)
T7188 000:691.205 - 0.012ms 
T7188 000:691.235 JLINK_ExecCommand("ProjectFile = "D:\hzq\Î÷ŃĹÍĽ¸ËËţÇăĐ±ADXL355\ÇăĐ±µÍłÉ±ľ°ć\6050+ÖĐ¶Ď»˝ĐŃ\MPU6050 - ˝ÓĘŐ¶Ë\MDK-ARM\JLinkSettings.ini"", ...). 
T7188 000:703.148   Ref file found at: D:\Keil_v5\ARM\Segger\JLinkDevices.ref
T7188 000:703.301   REF file references invalid XML file: D:\Program Files\SEGGER\JLink_V824\JLinkDevices.xml
T7188 000:704.268 - 13.030ms returns 0x00
T7188 000:706.850 JLINK_ExecCommand("Device = STM32L071RBTx", ...). 
T7188 000:709.337   Device "STM32L071RB" selected.
T7188 000:709.892 - 3.008ms returns 0x00
T7188 000:709.914 JLINK_ExecCommand("DisableConnectionTimeout", ...). 
T7188 000:709.936   ERROR: Unknown command
T7188 000:709.955 - 0.027ms returns 0x01
T7188 000:709.970 JLINK_GetHardwareVersion()
T7188 000:709.986 - 0.012ms returns 110000
T7188 000:709.998 JLINK_GetDLLVersion()
T7188 000:710.014 - 0.015ms returns 82400
T7188 000:710.027 JLINK_GetOEMString(...)
T7188 000:710.040 JLINK_GetFirmwareString(...)
T7188 000:710.052 - 0.012ms 
T7188 000:716.118 JLINK_GetDLLVersion()
T7188 000:716.148 - 0.029ms returns 82400
T7188 000:716.161 JLINK_GetCompileDateTime()
T7188 000:716.173 - 0.012ms 
T7188 000:718.147 JLINK_GetFirmwareString(...)
T7188 000:718.173 - 0.026ms 
T7188 000:719.814 JLINK_GetHardwareVersion()
T7188 000:719.843 - 0.029ms returns 110000
T7188 000:721.179 JLINK_GetSN()
T7188 000:721.205 - 0.025ms returns 601012352
T7188 000:722.780 JLINK_GetOEMString(...)
T7188 000:727.043 JLINK_TIF_Select(JLINKARM_TIF_SWD)
T7188 000:727.927 - 0.884ms returns 0x00
T7188 000:727.950 JLINK_HasError()
T7188 000:727.967 JLINK_SetSpeed(5000)
T7188 000:728.134 - 0.170ms 
T7188 000:728.149 JLINK_GetId()
T7188 000:729.736   InitTarget() start
T7188 000:729.781    J-Link Script File: Executing InitTarget()
T7188 000:731.271   SWD selected. Executing JTAG -> SWD switching sequence.
T7188 000:734.110   DAP initialized successfully.
T7188 000:743.361   InitTarget() end - Took 11.9ms
T7188 000:745.334   Found SW-DP with ID 0x0BC11477
T7188 000:748.319   DPIDR: 0x0BC11477
T7188 000:749.811   CoreSight SoC-400 or earlier
T7188 000:751.298   Scanning AP map to find all available APs
T7188 000:753.133   AP[1]: Stopped AP scan as end of AP map has been reached
T7188 000:755.135   AP[0]: AHB-AP (IDR: 0x04770031, ADDR: 0x00000000)
T7188 000:756.517   Iterating through AP map to find AHB-AP to use
T7188 000:758.714   AP[0]: Core found
T7188 000:760.182   AP[0]: AHB-AP ROM base: 0xF0000000
T7188 000:761.962   CPUID register: 0x410CC601. Implementer code: 0x41 (ARM)
T7188 000:763.379   Found Cortex-M0 r0p1, Little endian.
T7188 000:763.803   -- Max. mem block: 0x00004E78
T7188 000:764.201   CPU_ReadMem(4 bytes @ 0xE000EDF0)
T7188 000:764.490   CPU_ReadMem(4 bytes @ 0xE0002000)
T7188 000:766.147   FPUnit: 4 code (BP) slots and 0 literal slots
T7188 000:766.180   CPU_ReadMem(4 bytes @ 0xE000EDFC)
T7188 000:766.448   CPU_WriteMem(4 bytes @ 0xE000EDFC)
T7188 000:766.678   CPU_ReadMem(4 bytes @ 0xE0001000)
T7188 000:766.922   CPU_WriteMem(4 bytes @ 0xE0001000)
T7188 000:768.527   CoreSight components:
T7188 000:771.098   ROMTbl[0] @ F0000000
T7188 000:771.142   CPU_ReadMem(64 bytes @ 0xF0000000)
T7188 000:771.546   CPU_ReadMem(32 bytes @ 0xE00FFFE0)
T7188 000:773.439   [0][0]: E00FF000 CID B105100D PID 000BB4C0 ROM Table
T7188 000:775.248   ROMTbl[1] @ E00FF000
T7188 000:775.289   CPU_ReadMem(64 bytes @ 0xE00FF000)
T7188 000:775.786   CPU_ReadMem(32 bytes @ 0xE000EFE0)
T7188 000:777.533   [1][0]: E000E000 CID B105E00D PID 000BB008 SCS
T7188 000:777.569   CPU_ReadMem(32 bytes @ 0xE0001FE0)
T7188 000:779.360   [1][1]: E0001000 CID B105E00D PID 000BB00A DWT
T7188 000:779.393   CPU_ReadMem(32 bytes @ 0xE0002FE0)
T7188 000:781.057   [1][2]: E0002000 CID B105E00D PID 000BB00B FPB
T7188 000:781.275 - 53.125ms returns 0x0BC11477
T7188 000:781.297 JLINK_GetDLLVersion()
T7188 000:781.309 - 0.012ms returns 82400
T7188 000:781.323 JLINK_CORE_GetFound()
T7188 000:781.334 - 0.011ms returns 0x60000FF
T7188 000:781.352 JLINK_GetDebugInfo(0x100 = JLINKARM_ROM_TABLE_ADDR_INDEX)
T7188 000:781.363   Value=0xF0000000
T7188 000:781.380 - 0.028ms returns 0
T7188 000:782.740 JLINK_GetDebugInfo(0x100 = JLINKARM_ROM_TABLE_ADDR_INDEX)
T7188 000:782.765   Value=0xF0000000
T7188 000:782.782 - 0.042ms returns 0
T7188 000:782.795 JLINK_GetDebugInfo(0x101 = JLINKARM_DEBUG_INFO_ETM_ADDR_INDEX)
T7188 000:782.806   Value=0x00000000
T7188 000:782.823 - 0.028ms returns 0
T7188 000:782.836 JLINK_ReadMem(0xE0041FF0, 0x10 Bytes, ...)
T7188 000:782.867   CPU_ReadMem(16 bytes @ 0xE0041FF0)
T7188 000:783.195   Data:  00 00 00 00 00 00 00 00 00 00 00 00 00 00 00 00
T7188 000:783.214 - 0.378ms returns 0
T7188 000:783.227 JLINK_GetDebugInfo(0x102 = JLINKARM_DEBUG_INFO_MTB_ADDR_INDEX)
T7188 000:783.238   Value=0x00000000
T7188 000:783.255 - 0.027ms returns 0
T7188 000:783.267 JLINK_GetDebugInfo(0x103 = JLINKARM_DEBUG_INFO_TPIU_ADDR_INDEX)
T7188 000:783.278   Value=0x00000000
T7188 000:783.294 - 0.028ms returns 0
T7188 000:783.307 JLINK_ReadMem(0xE0040FF0, 0x10 Bytes, ...)
T7188 000:783.319   CPU_ReadMem(16 bytes @ 0xE0040FF0)
T7188 000:783.623   Data:  00 00 00 00 00 00 00 00 00 00 00 00 00 00 00 00
T7188 000:783.641 - 0.334ms returns 0
T7188 000:783.653 JLINK_GetDebugInfo(0x104 = JLINKARM_DEBUG_INFO_ITM_ADDR_INDEX)
T7188 000:783.665   Value=0xE0000000
T7188 000:783.681 - 0.028ms returns 0
T7188 000:783.693 JLINK_GetDebugInfo(0x105 = JLINKARM_DEBUG_INFO_DWT_ADDR_INDEX)
T7188 000:783.704   Value=0xE0001000
T7188 000:783.720 - 0.027ms returns 0
T7188 000:783.733 JLINK_GetDebugInfo(0x106 = JLINKARM_DEBUG_INFO_FPB_ADDR_INDEX)
T7188 000:783.744   Value=0xE0002000
T7188 000:783.761 - 0.028ms returns 0
T7188 000:783.772 JLINK_GetDebugInfo(0x107 = JLINKARM_DEBUG_INFO_NVIC_ADDR_INDEX)
T7188 000:783.784   Value=0xE000E000
T7188 000:783.800 - 0.028ms returns 0
T7188 000:783.812 JLINK_GetDebugInfo(0x10C = JLINKARM_DEBUG_INFO_DBG_ADDR_INDEX)
T7188 000:783.824   Value=0xE000EDF0
T7188 000:783.840 - 0.027ms returns 0
T7188 000:783.859 JLINK_ReadMemU32(0xE000ED00, 0x1 Items)
T7188 000:783.871   CPU_ReadMem(4 bytes @ 0xE000ED00)
T7188 000:784.105   Data:  01 C6 0C 41
T7188 000:784.123   Debug reg: CPUID
T7188 000:784.139 - 0.280ms returns 1 (0x1)
T7188 000:784.152 JLINK_HasError()
T7188 000:784.164 JLINK_SetResetType(JLINKARM_CM3_RESET_TYPE_NORMAL)
T7188 000:784.175 - 0.011ms returns JLINKARM_CM3_RESET_TYPE_NORMAL
T7188 000:784.187 JLINK_Reset()
T7188 000:784.201   JLINK_GetResetTypeDesc
T7188 000:784.215   - 0.014ms 
T7188 000:785.946   Reset type: NORMAL (https://wiki.segger.com/J-Link_Reset_Strategies)
T7188 000:785.990   CPU is running
T7188 000:786.013   CPU_WriteMem(4 bytes @ 0xE000EDF0)
T7188 000:786.270   CPU is running
T7188 000:786.292   CPU_WriteMem(4 bytes @ 0xE000EDFC)
T7188 000:787.909   Reset: Halt core after reset via DEMCR.VC_CORERESET.
T7188 000:789.692   Reset: Reset device via AIRCR.SYSRESETREQ.
T7188 000:789.724   CPU is running
T7188 000:789.743   CPU_WriteMem(4 bytes @ 0xE000ED0C)
T7188 000:843.332   CPU_ReadMem(4 bytes @ 0xE000EDF0)
T7188 000:843.688   CPU_ReadMem(4 bytes @ 0xE000EDF0)
T7188 000:845.886   CPU_WriteMem(4 bytes @ 0xE000EDFC)
T7188 000:851.968   CPU_ReadMem(4 bytes @ 0xE000EDF0)
T7188 000:854.258   CPU_WriteMem(4 bytes @ 0xE0002000)
T7188 000:854.657   CPU_ReadMem(4 bytes @ 0xE000EDFC)
T7188 000:854.978   CPU_ReadMem(4 bytes @ 0xE0001000)
T7188 000:855.329   CPU_WriteMem(4 bytes @ 0xE0001000)
T7188 000:855.671 - 71.482ms 
T7188 000:855.875 JLINK_Halt()
T7188 000:855.918 - 0.042ms returns 0x00
T7188 000:855.957 JLINK_IsHalted()
T7188 000:855.994 - 0.036ms returns TRUE
T7188 000:856.033 JLINK_ReadMemU32(0xE000EDF0, 0x1 Items)
T7188 000:856.079   CPU_ReadMem(4 bytes @ 0xE000EDF0)
T7188 000:856.407   Data:  03 00 03 00
T7188 000:856.467   Debug reg: DHCSR
T7188 000:856.520 - 0.487ms returns 1 (0x1)
T7188 000:856.568 JLINK_WriteU32(0xE000EDF0, 0xA05F0003)
T7188 000:856.603   Debug reg: DHCSR
T7188 000:857.271   CPU_WriteMem(4 bytes @ 0xE000EDF0)
T7188 000:857.672 - 1.112ms returns 0 (0x00000000)
T7188 000:857.746 JLINK_WriteU32(0xE000EDFC, 0x01000000)
T7188 000:857.789   Debug reg: DEMCR
T7188 000:857.853   CPU_WriteMem(4 bytes @ 0xE000EDFC)
T7188 000:858.205 - 0.457ms returns 0 (0x00000000)
T7188 000:868.177 JLINK_GetHWStatus(...)
T7188 000:868.403 - 0.225ms returns 0
T7188 000:872.239 JLINK_GetNumBPUnits(Type = 0xFFFFFF00)
T7188 000:872.266 - 0.027ms returns 0x04
T7188 000:872.280 JLINK_GetNumBPUnits(Type = 0xF0)
T7188 000:872.292 - 0.011ms returns 0x2000
T7188 000:872.303 JLINK_GetNumWPUnits()
T7188 000:872.315 - 0.011ms returns 2
T7188 000:876.568 JLINK_GetSpeed()
T7188 000:876.604 - 0.035ms returns 5000
T7188 000:879.798 JLINK_ReadMemU32(0xE000E004, 0x1 Items)
T7188 000:879.842   CPU_ReadMem(4 bytes @ 0xE000E004)
T7188 000:880.171   Data:  00 00 00 00
T7188 000:880.191 - 0.393ms returns 1 (0x1)
T7188 000:880.206 JLINK_Halt()
T7188 000:880.218 - 0.011ms returns 0x00
T7188 000:880.229 JLINK_IsHalted()
T7188 000:880.241 - 0.011ms returns TRUE
T7188 000:882.390 JLINK_WriteMem(0x20000000, 0x140 Bytes, ...)
T7188 000:882.409   Data:  00 BE 0A E0 0D 78 2D 06 68 40 08 24 40 00 00 D3 ...
T7188 000:882.627   CPU_WriteMem(320 bytes @ 0x20000000)
T7188 000:884.173 - 1.784ms returns 0x140
T7188 000:884.212 JLINK_HasError()
T7188 000:884.225 JLINK_WriteReg(R0, 0x08000000)
T7188 000:884.238 - 0.013ms returns 0
T7188 000:884.250 JLINK_WriteReg(R1, 0x00B71B00)
T7188 000:884.265 - 0.015ms returns 0
T7188 000:884.276 JLINK_WriteReg(R2, 0x00000001)
T7188 000:884.287 - 0.010ms returns 0
T7188 000:884.299 JLINK_WriteReg(R3, 0x00000000)
T7188 000:884.311 - 0.011ms returns 0
T7188 000:884.322 JLINK_WriteReg(R4, 0x00000000)
T7188 000:884.333 - 0.011ms returns 0
T7188 000:884.345 JLINK_WriteReg(R5, 0x00000000)
T7188 000:884.356 - 0.011ms returns 0
T7188 000:884.368 JLINK_WriteReg(R6, 0x00000000)
T7188 000:884.384 - 0.016ms returns 0
T7188 000:884.395 JLINK_WriteReg(R7, 0x00000000)
T7188 000:884.407 - 0.011ms returns 0
T7188 000:884.429 JLINK_WriteReg(R8, 0x00000000)
T7188 000:884.441 - 0.022ms returns 0
T7188 000:884.453 JLINK_WriteReg(R9, 0x2000013C)
T7188 000:884.464 - 0.011ms returns 0
T7188 000:884.475 JLINK_WriteReg(R10, 0x00000000)
T7188 000:884.486 - 0.011ms returns 0
T7188 000:884.498 JLINK_WriteReg(R11, 0x00000000)
T7188 000:884.509 - 0.010ms returns 0
T7188 000:884.521 JLINK_WriteReg(R12, 0x00000000)
T7188 000:884.532 - 0.011ms returns 0
T7188 000:884.544 JLINK_WriteReg(R13 (SP), 0x20001000)
T7188 000:884.556 - 0.011ms returns 0
T7188 000:884.568 JLINK_WriteReg(R14, 0x20000001)
T7188 000:884.579 - 0.011ms returns 0
T7188 000:884.594 JLINK_WriteReg(R15 (PC), 0x20000020)
T7188 000:884.605 - 0.015ms returns 0
T7188 000:884.619 JLINK_WriteReg(XPSR, 0x01000000)
T7188 000:884.631 - 0.012ms returns 0
T7188 000:884.643 JLINK_WriteReg(MSP, 0x20001000)
T7188 000:884.654 - 0.011ms returns 0
T7188 000:884.665 JLINK_WriteReg(PSP, 0x20001000)
T7188 000:884.677 - 0.011ms returns 0
T7188 000:884.689 JLINK_WriteReg(CFBP, 0x00000000)
T7188 000:884.700 - 0.011ms returns 0
T7188 000:884.712 JLINK_SetBPEx(Addr = 0x20000000, Type = 0xFFFFFFF2)
T7188 000:884.731   CPU_ReadMem(2 bytes @ 0x20000000)
T7188 000:884.989 - 0.277ms returns 0x00000001
T7188 000:885.004 JLINK_Go()
T7188 000:885.016   CPU_WriteMem(2 bytes @ 0x20000000)
T7188 000:885.280   CPU_ReadMem(4 bytes @ 0xE0001000)
T7188 000:885.517   CPU_WriteMem(4 bytes @ 0xE0001000)
T7188 000:885.774   CPU_WriteMem(4 bytes @ 0xE0002008)
T7188 000:885.791   CPU_WriteMem(4 bytes @ 0xE000200C)
T7188 000:885.807   CPU_WriteMem(4 bytes @ 0xE0002010)
T7188 000:885.823   CPU_WriteMem(4 bytes @ 0xE0002014)
T7188 000:886.466   CPU_WriteMem(4 bytes @ 0xE0001004)
T7188 000:889.730   Memory map 'after startup completion point' is active
T7188 000:889.764 - 4.760ms 
T7188 000:889.778 JLINK_IsHalted()
T7188 000:891.678   CPU_ReadMem(2 bytes @ 0x20000000)
T7188 000:892.020 - 2.241ms returns TRUE
T7188 000:892.036 JLINK_ReadReg(R15 (PC))
T7188 000:892.050 - 0.013ms returns 0x20000000
T7188 000:892.062 JLINK_ClrBPEx(BPHandle = 0x00000001)
T7188 000:892.073 - 0.011ms returns 0x00
T7188 000:892.086 JLINK_ReadReg(R0)
T7188 000:892.097 - 0.011ms returns 0x00000000
T7188 000:892.305 JLINK_HasError()
T7188 000:892.325 JLINK_WriteReg(R0, 0x08000000)
T7188 000:892.338 - 0.012ms returns 0
T7188 000:892.350 JLINK_WriteReg(R1, 0x00000080)
T7188 000:892.361 - 0.011ms returns 0
T7188 000:892.373 JLINK_WriteReg(R2, 0x00000000)
T7188 000:892.383 - 0.010ms returns 0
T7188 000:892.394 JLINK_WriteReg(R3, 0x00000000)
T7188 000:892.405 - 0.010ms returns 0
T7188 000:892.416 JLINK_WriteReg(R4, 0x00000000)
T7188 000:892.427 - 0.011ms returns 0
T7188 000:892.439 JLINK_WriteReg(R5, 0x00000000)
T7188 000:892.450 - 0.011ms returns 0
T7188 000:892.461 JLINK_WriteReg(R6, 0x00000000)
T7188 000:892.472 - 0.011ms returns 0
T7188 000:892.483 JLINK_WriteReg(R7, 0x00000000)
T7188 000:892.494 - 0.010ms returns 0
T7188 000:892.505 JLINK_WriteReg(R8, 0x00000000)
T7188 000:892.516 - 0.010ms returns 0
T7188 000:892.527 JLINK_WriteReg(R9, 0x2000013C)
T7188 000:892.538 - 0.010ms returns 0
T7188 000:892.549 JLINK_WriteReg(R10, 0x00000000)
T7188 000:892.560 - 0.011ms returns 0
T7188 000:892.571 JLINK_WriteReg(R11, 0x00000000)
T7188 000:892.582 - 0.011ms returns 0
T7188 000:892.593 JLINK_WriteReg(R12, 0x00000000)
T7188 000:892.604 - 0.010ms returns 0
T7188 000:892.615 JLINK_WriteReg(R13 (SP), 0x20001000)
T7188 000:892.626 - 0.011ms returns 0
T7188 000:892.638 JLINK_WriteReg(R14, 0x20000001)
T7188 000:892.649 - 0.010ms returns 0
T7188 000:892.660 JLINK_WriteReg(R15 (PC), 0x200000B0)
T7188 000:892.671 - 0.011ms returns 0
T7188 000:892.682 JLINK_WriteReg(XPSR, 0x01000000)
T7188 000:892.693 - 0.011ms returns 0
T7188 000:892.705 JLINK_WriteReg(MSP, 0x20001000)
T7188 000:892.716 - 0.010ms returns 0
T7188 000:892.727 JLINK_WriteReg(PSP, 0x20001000)
T7188 000:892.738 - 0.011ms returns 0
T7188 000:892.750 JLINK_WriteReg(CFBP, 0x00000000)
T7188 000:892.762 - 0.011ms returns 0
T7188 000:892.774 JLINK_SetBPEx(Addr = 0x20000000, Type = 0xFFFFFFF2)
T7188 000:892.786 - 0.012ms returns 0x00000002
T7188 000:892.798 JLINK_Go()
T7188 000:892.815   CPU_ReadMem(4 bytes @ 0xE0001000)
T7188 000:894.939 - 2.140ms 
T7188 000:895.036 JLINK_IsHalted()
T7188 000:897.143   CPU_ReadMem(2 bytes @ 0x20000000)
T7188 000:897.481 - 2.444ms returns TRUE
T7188 000:897.495 JLINK_ReadReg(R15 (PC))
T7188 000:897.507 - 0.012ms returns 0x20000000
T7188 000:897.519 JLINK_ClrBPEx(BPHandle = 0x00000002)
T7188 000:897.530 - 0.011ms returns 0x00
T7188 000:897.541 JLINK_ReadReg(R0)
T7188 000:897.552 - 0.010ms returns 0x00000001
T7188 000:897.564 JLINK_HasError()
T7188 000:897.576 JLINK_WriteReg(R0, 0x08000000)
T7188 000:897.587 - 0.011ms returns 0
T7188 000:897.644 JLINK_WriteReg(R1, 0x00000080)
T7188 000:897.655 - 0.011ms returns 0
T7188 000:897.667 JLINK_WriteReg(R2, 0x00000000)
T7188 000:897.677 - 0.010ms returns 0
T7188 000:897.689 JLINK_WriteReg(R3, 0x00000000)
T7188 000:897.699 - 0.010ms returns 0
T7188 000:897.710 JLINK_WriteReg(R4, 0x00000000)
T7188 000:897.721 - 0.010ms returns 0
T7188 000:897.733 JLINK_WriteReg(R5, 0x00000000)
T7188 000:897.744 - 0.010ms returns 0
T7188 000:897.755 JLINK_WriteReg(R6, 0x00000000)
T7188 000:897.766 - 0.011ms returns 0
T7188 000:897.778 JLINK_WriteReg(R7, 0x00000000)
T7188 000:897.788 - 0.010ms returns 0
T7188 000:897.799 JLINK_WriteReg(R8, 0x00000000)
T7188 000:897.810 - 0.010ms returns 0
T7188 000:897.821 JLINK_WriteReg(R9, 0x2000013C)
T7188 000:897.832 - 0.011ms returns 0
T7188 000:897.844 JLINK_WriteReg(R10, 0x00000000)
T7188 000:897.855 - 0.011ms returns 0
T7188 000:897.866 JLINK_WriteReg(R11, 0x00000000)
T7188 000:897.877 - 0.010ms returns 0
T7188 000:897.888 JLINK_WriteReg(R12, 0x00000000)
T7188 000:897.899 - 0.011ms returns 0
T7188 000:897.910 JLINK_WriteReg(R13 (SP), 0x20001000)
T7188 000:897.922 - 0.011ms returns 0
T7188 000:897.934 JLINK_WriteReg(R14, 0x20000001)
T7188 000:897.945 - 0.011ms returns 0
T7188 000:897.956 JLINK_WriteReg(R15 (PC), 0x2000007A)
T7188 000:897.966 - 0.010ms returns 0
T7188 000:897.978 JLINK_WriteReg(XPSR, 0x01000000)
T7188 000:897.989 - 0.011ms returns 0
T7188 000:898.000 JLINK_WriteReg(MSP, 0x20001000)
T7188 000:898.011 - 0.010ms returns 0
T7188 000:898.022 JLINK_WriteReg(PSP, 0x20001000)
T7188 000:898.032 - 0.010ms returns 0
T7188 000:898.044 JLINK_WriteReg(CFBP, 0x00000000)
T7188 000:898.055 - 0.011ms returns 0
T7188 000:898.068 JLINK_SetBPEx(Addr = 0x20000000, Type = 0xFFFFFFF2)
T7188 000:898.079 - 0.011ms returns 0x00000003
T7188 000:898.090 JLINK_Go()
T7188 000:898.105   CPU_ReadMem(4 bytes @ 0xE0001000)
T7188 000:899.996 - 1.905ms 
T7188 000:900.011 JLINK_IsHalted()
T7188 000:900.232 - 0.220ms returns FALSE
T7188 000:900.245 JLINK_HasError()
T7188 000:909.774 JLINK_IsHalted()
T7188 000:911.774   CPU_ReadMem(2 bytes @ 0x20000000)
T7188 000:912.053 - 2.282ms returns TRUE
T7188 000:912.072 JLINK_ReadReg(R15 (PC))
T7188 000:912.087 - 0.014ms returns 0x20000000
T7188 000:912.100 JLINK_ClrBPEx(BPHandle = 0x00000003)
T7188 000:912.112 - 0.011ms returns 0x00
T7188 000:912.124 JLINK_ReadReg(R0)
T7188 000:912.136 - 0.012ms returns 0x00000000
T7188 000:912.478 JLINK_HasError()
T7188 000:912.500 JLINK_WriteReg(R0, 0x08000080)
T7188 000:912.514 - 0.013ms returns 0
T7188 000:912.529 JLINK_WriteReg(R1, 0x00000080)
T7188 000:912.540 - 0.011ms returns 0
T7188 000:912.552 JLINK_WriteReg(R2, 0x00000000)
T7188 000:912.563 - 0.010ms returns 0
T7188 000:912.574 JLINK_WriteReg(R3, 0x00000000)
T7188 000:912.585 - 0.010ms returns 0
T7188 000:912.596 JLINK_WriteReg(R4, 0x00000000)
T7188 000:912.607 - 0.010ms returns 0
T7188 000:912.618 JLINK_WriteReg(R5, 0x00000000)
T7188 000:912.628 - 0.010ms returns 0
T7188 000:912.640 JLINK_WriteReg(R6, 0x00000000)
T7188 000:912.650 - 0.010ms returns 0
T7188 000:912.661 JLINK_WriteReg(R7, 0x00000000)
T7188 000:912.672 - 0.010ms returns 0
T7188 000:912.683 JLINK_WriteReg(R8, 0x00000000)
T7188 000:912.694 - 0.011ms returns 0
T7188 000:912.705 JLINK_WriteReg(R9, 0x2000013C)
T7188 000:912.716 - 0.011ms returns 0
T7188 000:912.728 JLINK_WriteReg(R10, 0x00000000)
T7188 000:912.739 - 0.011ms returns 0
T7188 000:912.751 JLINK_WriteReg(R11, 0x00000000)
T7188 000:912.761 - 0.010ms returns 0
T7188 000:912.772 JLINK_WriteReg(R12, 0x00000000)
T7188 000:912.783 - 0.010ms returns 0
T7188 000:912.794 JLINK_WriteReg(R13 (SP), 0x20001000)
T7188 000:912.805 - 0.011ms returns 0
T7188 000:912.817 JLINK_WriteReg(R14, 0x20000001)
T7188 000:912.827 - 0.010ms returns 0
T7188 000:912.839 JLINK_WriteReg(R15 (PC), 0x200000B0)
T7188 000:912.850 - 0.010ms returns 0
T7188 000:912.861 JLINK_WriteReg(XPSR, 0x01000000)
T7188 000:912.872 - 0.011ms returns 0
T7188 000:912.883 JLINK_WriteReg(MSP, 0x20001000)
T7188 000:912.898 - 0.014ms returns 0
T7188 000:912.911 JLINK_WriteReg(PSP, 0x20001000)
T7188 000:912.923 - 0.011ms returns 0
T7188 000:912.934 JLINK_WriteReg(CFBP, 0x00000000)
T7188 000:912.944 - 0.010ms returns 0
T7188 000:912.956 JLINK_SetBPEx(Addr = 0x20000000, Type = 0xFFFFFFF2)
T7188 000:912.968 - 0.012ms returns 0x00000004
T7188 000:912.980 JLINK_Go()
T7188 000:912.996   CPU_ReadMem(4 bytes @ 0xE0001000)
T7188 000:915.094 - 2.114ms 
T7188 000:915.111 JLINK_IsHalted()
T7188 000:917.074   CPU_ReadMem(2 bytes @ 0x20000000)
T7188 000:917.421 - 2.310ms returns TRUE
T7188 000:917.435 JLINK_ReadReg(R15 (PC))
T7188 000:917.447 - 0.012ms returns 0x20000000
T7188 000:917.458 JLINK_ClrBPEx(BPHandle = 0x00000004)
T7188 000:917.469 - 0.010ms returns 0x00
T7188 000:917.480 JLINK_ReadReg(R0)
T7188 000:917.491 - 0.010ms returns 0x00000001
T7188 000:917.503 JLINK_HasError()
T7188 000:917.515 JLINK_WriteReg(R0, 0x08000080)
T7188 000:917.526 - 0.010ms returns 0
T7188 000:917.537 JLINK_WriteReg(R1, 0x00000080)
T7188 000:917.548 - 0.011ms returns 0
T7188 000:917.560 JLINK_WriteReg(R2, 0x00000000)
T7188 000:917.571 - 0.011ms returns 0
T7188 000:917.582 JLINK_WriteReg(R3, 0x00000000)
T7188 000:917.593 - 0.011ms returns 0
T7188 000:917.604 JLINK_WriteReg(R4, 0x00000000)
T7188 000:917.615 - 0.011ms returns 0
T7188 000:917.626 JLINK_WriteReg(R5, 0x00000000)
T7188 000:917.637 - 0.010ms returns 0
T7188 000:917.648 JLINK_WriteReg(R6, 0x00000000)
T7188 000:917.659 - 0.010ms returns 0
T7188 000:917.670 JLINK_WriteReg(R7, 0x00000000)
T7188 000:917.681 - 0.011ms returns 0
T7188 000:917.692 JLINK_WriteReg(R8, 0x00000000)
T7188 000:917.703 - 0.010ms returns 0
T7188 000:917.715 JLINK_WriteReg(R9, 0x2000013C)
T7188 000:917.726 - 0.011ms returns 0
T7188 000:917.737 JLINK_WriteReg(R10, 0x00000000)
T7188 000:917.748 - 0.011ms returns 0
T7188 000:917.760 JLINK_WriteReg(R11, 0x00000000)
T7188 000:917.770 - 0.010ms returns 0
T7188 000:917.782 JLINK_WriteReg(R12, 0x00000000)
T7188 000:917.792 - 0.010ms returns 0
T7188 000:917.804 JLINK_WriteReg(R13 (SP), 0x20001000)
T7188 000:917.815 - 0.011ms returns 0
T7188 000:917.827 JLINK_WriteReg(R14, 0x20000001)
T7188 000:917.837 - 0.010ms returns 0
T7188 000:917.849 JLINK_WriteReg(R15 (PC), 0x2000007A)
T7188 000:917.859 - 0.010ms returns 0
T7188 000:917.870 JLINK_WriteReg(XPSR, 0x01000000)
T7188 000:917.882 - 0.011ms returns 0
T7188 000:917.893 JLINK_WriteReg(MSP, 0x20001000)
T7188 000:917.903 - 0.010ms returns 0
T7188 000:917.914 JLINK_WriteReg(PSP, 0x20001000)
T7188 000:917.925 - 0.010ms returns 0
T7188 000:917.936 JLINK_WriteReg(CFBP, 0x00000000)
T7188 000:917.947 - 0.011ms returns 0
T7188 000:917.959 JLINK_SetBPEx(Addr = 0x20000000, Type = 0xFFFFFFF2)
T7188 000:917.969 - 0.011ms returns 0x00000005
T7188 000:917.984 JLINK_Go()
T7188 000:917.998   CPU_ReadMem(4 bytes @ 0xE0001000)
T7188 000:920.017 - 2.033ms 
T7188 000:920.032 JLINK_IsHalted()
T7188 000:920.267 - 0.235ms returns FALSE
T7188 000:920.280 JLINK_HasError()
T7188 000:921.474 JLINK_IsHalted()
T7188 000:921.829 - 0.357ms returns FALSE
T7188 000:921.844 JLINK_HasError()
T7188 000:923.583 JLINK_IsHalted()
T7188 000:925.597   CPU_ReadMem(2 bytes @ 0x20000000)
T7188 000:925.949 - 2.368ms returns TRUE
T7188 000:925.965 JLINK_ReadReg(R15 (PC))
T7188 000:925.978 - 0.013ms returns 0x20000000
T7188 000:925.990 JLINK_ClrBPEx(BPHandle = 0x00000005)
T7188 000:926.002 - 0.012ms returns 0x00
T7188 000:926.018 JLINK_ReadReg(R0)
T7188 000:926.029 - 0.011ms returns 0x00000000
T7188 000:926.353 JLINK_HasError()
T7188 000:926.374 JLINK_WriteReg(R0, 0x08000100)
T7188 000:926.388 - 0.013ms returns 0
T7188 000:926.399 JLINK_WriteReg(R1, 0x00000080)
T7188 000:926.411 - 0.011ms returns 0
T7188 000:926.423 JLINK_WriteReg(R2, 0x00000000)
T7188 000:926.434 - 0.011ms returns 0
T7188 000:926.451 JLINK_WriteReg(R3, 0x00000000)
T7188 000:926.462 - 0.011ms returns 0
T7188 000:926.474 JLINK_WriteReg(R4, 0x00000000)
T7188 000:926.486 - 0.011ms returns 0
T7188 000:926.497 JLINK_WriteReg(R5, 0x00000000)
T7188 000:926.514 - 0.017ms returns 0
T7188 000:926.527 JLINK_WriteReg(R6, 0x00000000)
T7188 000:926.538 - 0.011ms returns 0
T7188 000:926.549 JLINK_WriteReg(R7, 0x00000000)
T7188 000:926.560 - 0.010ms returns 0
T7188 000:926.572 JLINK_WriteReg(R8, 0x00000000)
T7188 000:926.583 - 0.011ms returns 0
T7188 000:926.594 JLINK_WriteReg(R9, 0x2000013C)
T7188 000:926.605 - 0.011ms returns 0
T7188 000:926.617 JLINK_WriteReg(R10, 0x00000000)
T7188 000:926.628 - 0.011ms returns 0
T7188 000:926.641 JLINK_WriteReg(R11, 0x00000000)
T7188 000:926.652 - 0.011ms returns 0
T7188 000:926.663 JLINK_WriteReg(R12, 0x00000000)
T7188 000:926.732 - 0.068ms returns 0
T7188 000:926.750 JLINK_WriteReg(R13 (SP), 0x20001000)
T7188 000:926.764 - 0.014ms returns 0
T7188 000:926.780 JLINK_WriteReg(R14, 0x20000001)
T7188 000:926.795 - 0.014ms returns 0
T7188 000:926.807 JLINK_WriteReg(R15 (PC), 0x200000B0)
T7188 000:926.818 - 0.011ms returns 0
T7188 000:926.831 JLINK_WriteReg(XPSR, 0x01000000)
T7188 000:926.842 - 0.011ms returns 0
T7188 000:926.853 JLINK_WriteReg(MSP, 0x20001000)
T7188 000:926.865 - 0.011ms returns 0
T7188 000:926.881 JLINK_WriteReg(PSP, 0x20001000)
T7188 000:926.893 - 0.011ms returns 0
T7188 000:926.905 JLINK_WriteReg(CFBP, 0x00000000)
T7188 000:926.916 - 0.011ms returns 0
T7188 000:926.929 JLINK_SetBPEx(Addr = 0x20000000, Type = 0xFFFFFFF2)
T7188 000:926.967 - 0.038ms returns 0x00000006
T7188 000:926.982 JLINK_Go()
T7188 000:926.998   CPU_ReadMem(4 bytes @ 0xE0001000)
T7188 000:929.093 - 2.110ms 
T7188 000:929.116 JLINK_IsHalted()
T7188 000:930.882   CPU_ReadMem(2 bytes @ 0x20000000)
T7188 000:931.143 - 2.027ms returns TRUE
T7188 000:931.157 JLINK_ReadReg(R15 (PC))
T7188 000:931.169 - 0.012ms returns 0x20000000
T7188 000:931.180 JLINK_ClrBPEx(BPHandle = 0x00000006)
T7188 000:931.192 - 0.011ms returns 0x00
T7188 000:931.203 JLINK_ReadReg(R0)
T7188 000:931.215 - 0.011ms returns 0x00000001
T7188 000:931.227 JLINK_HasError()
T7188 000:931.239 JLINK_WriteReg(R0, 0x08000100)
T7188 000:931.251 - 0.011ms returns 0
T7188 000:931.267 JLINK_WriteReg(R1, 0x00000080)
T7188 000:931.278 - 0.011ms returns 0
T7188 000:931.289 JLINK_WriteReg(R2, 0x00000000)
T7188 000:931.301 - 0.011ms returns 0
T7188 000:931.312 JLINK_WriteReg(R3, 0x00000000)
T7188 000:931.324 - 0.011ms returns 0
T7188 000:931.335 JLINK_WriteReg(R4, 0x00000000)
T7188 000:931.346 - 0.011ms returns 0
T7188 000:931.358 JLINK_WriteReg(R5, 0x00000000)
T7188 000:931.369 - 0.011ms returns 0
T7188 000:931.380 JLINK_WriteReg(R6, 0x00000000)
T7188 000:931.390 - 0.010ms returns 0
T7188 000:931.402 JLINK_WriteReg(R7, 0x00000000)
T7188 000:931.414 - 0.011ms returns 0
T7188 000:931.425 JLINK_WriteReg(R8, 0x00000000)
T7188 000:931.436 - 0.011ms returns 0
T7188 000:931.448 JLINK_WriteReg(R9, 0x2000013C)
T7188 000:931.458 - 0.010ms returns 0
T7188 000:931.470 JLINK_WriteReg(R10, 0x00000000)
T7188 000:931.481 - 0.011ms returns 0
T7188 000:931.493 JLINK_WriteReg(R11, 0x00000000)
T7188 000:931.504 - 0.011ms returns 0
T7188 000:931.516 JLINK_WriteReg(R12, 0x00000000)
T7188 000:931.527 - 0.011ms returns 0
T7188 000:931.539 JLINK_WriteReg(R13 (SP), 0x20001000)
T7188 000:931.550 - 0.011ms returns 0
T7188 000:931.562 JLINK_WriteReg(R14, 0x20000001)
T7188 000:931.573 - 0.011ms returns 0
T7188 000:931.585 JLINK_WriteReg(R15 (PC), 0x2000007A)
T7188 000:931.596 - 0.011ms returns 0
T7188 000:931.608 JLINK_WriteReg(XPSR, 0x01000000)
T7188 000:931.619 - 0.011ms returns 0
T7188 000:931.631 JLINK_WriteReg(MSP, 0x20001000)
T7188 000:931.641 - 0.010ms returns 0
T7188 000:931.653 JLINK_WriteReg(PSP, 0x20001000)
T7188 000:931.664 - 0.011ms returns 0
T7188 000:931.675 JLINK_WriteReg(CFBP, 0x00000000)
T7188 000:931.687 - 0.011ms returns 0
T7188 000:931.699 JLINK_SetBPEx(Addr = 0x20000000, Type = 0xFFFFFFF2)
T7188 000:931.710 - 0.011ms returns 0x00000007
T7188 000:931.722 JLINK_Go()
T7188 000:931.735   CPU_ReadMem(4 bytes @ 0xE0001000)
T7188 000:933.760 - 2.035ms 
T7188 000:933.788 JLINK_IsHalted()
T7188 000:934.072 - 0.284ms returns FALSE
T7188 000:934.091 JLINK_HasError()
T7188 000:935.395 JLINK_IsHalted()
T7188 000:935.652 - 0.261ms returns FALSE
T7188 000:935.667 JLINK_HasError()
T7188 000:937.548 JLINK_IsHalted()
T7188 000:939.357   CPU_ReadMem(2 bytes @ 0x20000000)
T7188 000:939.596 - 2.047ms returns TRUE
T7188 000:939.610 JLINK_ReadReg(R15 (PC))
T7188 000:939.622 - 0.012ms returns 0x20000000
T7188 000:939.633 JLINK_ClrBPEx(BPHandle = 0x00000007)
T7188 000:939.645 - 0.011ms returns 0x00
T7188 000:939.656 JLINK_ReadReg(R0)
T7188 000:939.667 - 0.011ms returns 0x00000000
T7188 000:939.944 JLINK_HasError()
T7188 000:939.965 JLINK_WriteReg(R0, 0x08000180)
T7188 000:939.978 - 0.013ms returns 0
T7188 000:939.990 JLINK_WriteReg(R1, 0x00000080)
T7188 000:940.001 - 0.011ms returns 0
T7188 000:940.013 JLINK_WriteReg(R2, 0x00000000)
T7188 000:940.025 - 0.012ms returns 0
T7188 000:940.037 JLINK_WriteReg(R3, 0x00000000)
T7188 000:940.048 - 0.011ms returns 0
T7188 000:940.060 JLINK_WriteReg(R4, 0x00000000)
T7188 000:940.071 - 0.011ms returns 0
T7188 000:940.083 JLINK_WriteReg(R5, 0x00000000)
T7188 000:940.094 - 0.011ms returns 0
T7188 000:940.106 JLINK_WriteReg(R6, 0x00000000)
T7188 000:940.117 - 0.011ms returns 0
T7188 000:940.129 JLINK_WriteReg(R7, 0x00000000)
T7188 000:940.145 - 0.016ms returns 0
T7188 000:940.157 JLINK_WriteReg(R8, 0x00000000)
T7188 000:940.168 - 0.011ms returns 0
T7188 000:940.179 JLINK_WriteReg(R9, 0x2000013C)
T7188 000:940.191 - 0.011ms returns 0
T7188 000:940.203 JLINK_WriteReg(R10, 0x00000000)
T7188 000:940.214 - 0.011ms returns 0
T7188 000:940.226 JLINK_WriteReg(R11, 0x00000000)
T7188 000:940.237 - 0.011ms returns 0
T7188 000:940.249 JLINK_WriteReg(R12, 0x00000000)
T7188 000:940.260 - 0.011ms returns 0
T7188 000:940.272 JLINK_WriteReg(R13 (SP), 0x20001000)
T7188 000:940.283 - 0.011ms returns 0
T7188 000:940.295 JLINK_WriteReg(R14, 0x20000001)
T7188 000:940.316 - 0.020ms returns 0
T7188 000:940.331 JLINK_WriteReg(R15 (PC), 0x200000B0)
T7188 000:940.344 - 0.012ms returns 0
T7188 000:940.357 JLINK_WriteReg(XPSR, 0x01000000)
T7188 000:940.371 - 0.014ms returns 0
T7188 000:940.388 JLINK_WriteReg(MSP, 0x20001000)
T7188 000:940.400 - 0.011ms returns 0
T7188 000:940.412 JLINK_WriteReg(PSP, 0x20001000)
T7188 000:940.425 - 0.012ms returns 0
T7188 000:940.437 JLINK_WriteReg(CFBP, 0x00000000)
T7188 000:940.448 - 0.011ms returns 0
T7188 000:940.462 JLINK_SetBPEx(Addr = 0x20000000, Type = 0xFFFFFFF2)
T7188 000:940.474 - 0.012ms returns 0x00000008
T7188 000:940.489 JLINK_Go()
T7188 000:940.506   CPU_ReadMem(4 bytes @ 0xE0001000)
T7188 000:942.416 - 1.929ms 
T7188 000:942.443 JLINK_IsHalted()
T7188 000:944.590   CPU_ReadMem(2 bytes @ 0x20000000)
T7188 000:944.894 - 2.450ms returns TRUE
T7188 000:944.909 JLINK_ReadReg(R15 (PC))
T7188 000:944.922 - 0.013ms returns 0x20000000
T7188 000:944.934 JLINK_ClrBPEx(BPHandle = 0x00000008)
T7188 000:944.946 - 0.011ms returns 0x00
T7188 000:944.958 JLINK_ReadReg(R0)
T7188 000:944.970 - 0.012ms returns 0x00000001
T7188 000:944.982 JLINK_HasError()
T7188 000:944.993 JLINK_WriteReg(R0, 0x08000180)
T7188 000:945.005 - 0.011ms returns 0
T7188 000:945.016 JLINK_WriteReg(R1, 0x00000080)
T7188 000:945.027 - 0.011ms returns 0
T7188 000:945.038 JLINK_WriteReg(R2, 0x00000000)
T7188 000:945.049 - 0.011ms returns 0
T7188 000:945.060 JLINK_WriteReg(R3, 0x00000000)
T7188 000:945.071 - 0.010ms returns 0
T7188 000:945.082 JLINK_WriteReg(R4, 0x00000000)
T7188 000:945.093 - 0.010ms returns 0
T7188 000:945.104 JLINK_WriteReg(R5, 0x00000000)
T7188 000:945.121 - 0.016ms returns 0
T7188 000:945.132 JLINK_WriteReg(R6, 0x00000000)
T7188 000:945.143 - 0.010ms returns 0
T7188 000:945.154 JLINK_WriteReg(R7, 0x00000000)
T7188 000:945.165 - 0.010ms returns 0
T7188 000:945.176 JLINK_WriteReg(R8, 0x00000000)
T7188 000:945.186 - 0.010ms returns 0
T7188 000:945.198 JLINK_WriteReg(R9, 0x2000013C)
T7188 000:945.208 - 0.010ms returns 0
T7188 000:945.220 JLINK_WriteReg(R10, 0x00000000)
T7188 000:945.230 - 0.010ms returns 0
T7188 000:945.241 JLINK_WriteReg(R11, 0x00000000)
T7188 000:945.301 - 0.059ms returns 0
T7188 000:945.313 JLINK_WriteReg(R12, 0x00000000)
T7188 000:945.324 - 0.011ms returns 0
T7188 000:945.335 JLINK_WriteReg(R13 (SP), 0x20001000)
T7188 000:945.346 - 0.011ms returns 0
T7188 000:945.358 JLINK_WriteReg(R14, 0x20000001)
T7188 000:945.369 - 0.010ms returns 0
T7188 000:945.380 JLINK_WriteReg(R15 (PC), 0x2000007A)
T7188 000:945.391 - 0.010ms returns 0
T7188 000:945.402 JLINK_WriteReg(XPSR, 0x01000000)
T7188 000:945.412 - 0.010ms returns 0
T7188 000:945.424 JLINK_WriteReg(MSP, 0x20001000)
T7188 000:945.434 - 0.010ms returns 0
T7188 000:945.446 JLINK_WriteReg(PSP, 0x20001000)
T7188 000:945.456 - 0.010ms returns 0
T7188 000:945.468 JLINK_WriteReg(CFBP, 0x00000000)
T7188 000:945.479 - 0.010ms returns 0
T7188 000:945.490 JLINK_SetBPEx(Addr = 0x20000000, Type = 0xFFFFFFF2)
T7188 000:945.502 - 0.011ms returns 0x00000009
T7188 000:945.513 JLINK_Go()
T7188 000:945.527   CPU_ReadMem(4 bytes @ 0xE0001000)
T7188 000:947.464 - 1.950ms 
T7188 000:947.479 JLINK_IsHalted()
T7188 000:947.721 - 0.241ms returns FALSE
T7188 000:947.734 JLINK_HasError()
T7188 000:950.084 JLINK_IsHalted()
T7188 000:950.442 - 0.359ms returns FALSE
T7188 000:950.465 JLINK_HasError()
T7188 000:952.219 JLINK_IsHalted()
T7188 000:954.023   CPU_ReadMem(2 bytes @ 0x20000000)
T7188 000:954.269 - 2.052ms returns TRUE
T7188 000:954.287 JLINK_ReadReg(R15 (PC))
T7188 000:954.300 - 0.012ms returns 0x20000000
T7188 000:954.312 JLINK_ClrBPEx(BPHandle = 0x00000009)
T7188 000:954.324 - 0.011ms returns 0x00
T7188 000:954.336 JLINK_ReadReg(R0)
T7188 000:954.348 - 0.011ms returns 0x00000000
T7188 000:954.649 JLINK_HasError()
T7188 000:954.669 JLINK_WriteReg(R0, 0x08000200)
T7188 000:954.682 - 0.012ms returns 0
T7188 000:954.694 JLINK_WriteReg(R1, 0x00000080)
T7188 000:954.705 - 0.011ms returns 0
T7188 000:954.717 JLINK_WriteReg(R2, 0x00000000)
T7188 000:954.728 - 0.011ms returns 0
T7188 000:954.740 JLINK_WriteReg(R3, 0x00000000)
T7188 000:954.755 - 0.015ms returns 0
T7188 000:954.767 JLINK_WriteReg(R4, 0x00000000)
T7188 000:954.778 - 0.011ms returns 0
T7188 000:954.790 JLINK_WriteReg(R5, 0x00000000)
T7188 000:954.801 - 0.011ms returns 0
T7188 000:954.812 JLINK_WriteReg(R6, 0x00000000)
T7188 000:954.823 - 0.010ms returns 0
T7188 000:954.834 JLINK_WriteReg(R7, 0x00000000)
T7188 000:954.845 - 0.011ms returns 0
T7188 000:954.857 JLINK_WriteReg(R8, 0x00000000)
T7188 000:954.868 - 0.010ms returns 0
T7188 000:954.879 JLINK_WriteReg(R9, 0x2000013C)
T7188 000:954.890 - 0.011ms returns 0
T7188 000:954.901 JLINK_WriteReg(R10, 0x00000000)
T7188 000:954.912 - 0.011ms returns 0
T7188 000:954.923 JLINK_WriteReg(R11, 0x00000000)
T7188 000:954.934 - 0.010ms returns 0
T7188 000:954.945 JLINK_WriteReg(R12, 0x00000000)
T7188 000:954.956 - 0.010ms returns 0
T7188 000:954.967 JLINK_WriteReg(R13 (SP), 0x20001000)
T7188 000:954.978 - 0.011ms returns 0
T7188 000:954.989 JLINK_WriteReg(R14, 0x20000001)
T7188 000:955.000 - 0.010ms returns 0
T7188 000:955.012 JLINK_WriteReg(R15 (PC), 0x200000B0)
T7188 000:955.022 - 0.010ms returns 0
T7188 000:955.033 JLINK_WriteReg(XPSR, 0x01000000)
T7188 000:955.044 - 0.010ms returns 0
T7188 000:955.056 JLINK_WriteReg(MSP, 0x20001000)
T7188 000:955.066 - 0.010ms returns 0
T7188 000:955.078 JLINK_WriteReg(PSP, 0x20001000)
T7188 000:955.089 - 0.010ms returns 0
T7188 000:955.100 JLINK_WriteReg(CFBP, 0x00000000)
T7188 000:955.110 - 0.010ms returns 0
T7188 000:955.122 JLINK_SetBPEx(Addr = 0x20000000, Type = 0xFFFFFFF2)
T7188 000:955.133 - 0.011ms returns 0x0000000A
T7188 000:955.145 JLINK_Go()
T7188 000:955.160   CPU_ReadMem(4 bytes @ 0xE0001000)
T7188 000:957.403 - 2.258ms 
T7188 000:957.436 JLINK_IsHalted()
T7188 000:959.296   CPU_ReadMem(2 bytes @ 0x20000000)
T7188 000:959.542 - 2.105ms returns TRUE
T7188 000:959.561 JLINK_ReadReg(R15 (PC))
T7188 000:959.574 - 0.013ms returns 0x20000000
T7188 000:959.587 JLINK_ClrBPEx(BPHandle = 0x0000000A)
T7188 000:959.599 - 0.012ms returns 0x00
T7188 000:959.612 JLINK_ReadReg(R0)
T7188 000:959.627 - 0.015ms returns 0x00000001
T7188 000:959.640 JLINK_HasError()
T7188 000:959.706 JLINK_WriteReg(R0, 0x08000200)
T7188 000:959.718 - 0.012ms returns 0
T7188 000:959.730 JLINK_WriteReg(R1, 0x00000080)
T7188 000:959.740 - 0.010ms returns 0
T7188 000:959.752 JLINK_WriteReg(R2, 0x00000000)
T7188 000:959.763 - 0.011ms returns 0
T7188 000:959.775 JLINK_WriteReg(R3, 0x00000000)
T7188 000:959.785 - 0.010ms returns 0
T7188 000:959.801 JLINK_WriteReg(R4, 0x00000000)
T7188 000:959.812 - 0.010ms returns 0
T7188 000:959.823 JLINK_WriteReg(R5, 0x00000000)
T7188 000:959.835 - 0.011ms returns 0
T7188 000:959.846 JLINK_WriteReg(R6, 0x00000000)
T7188 000:959.857 - 0.011ms returns 0
T7188 000:959.869 JLINK_WriteReg(R7, 0x00000000)
T7188 000:959.880 - 0.011ms returns 0
T7188 000:959.892 JLINK_WriteReg(R8, 0x00000000)
T7188 000:959.903 - 0.011ms returns 0
T7188 000:959.915 JLINK_WriteReg(R9, 0x2000013C)
T7188 000:959.927 - 0.012ms returns 0
T7188 000:959.939 JLINK_WriteReg(R10, 0x00000000)
T7188 000:959.950 - 0.011ms returns 0
T7188 000:959.961 JLINK_WriteReg(R11, 0x00000000)
T7188 000:959.973 - 0.011ms returns 0
T7188 000:959.985 JLINK_WriteReg(R12, 0x00000000)
T7188 000:959.996 - 0.011ms returns 0
T7188 000:960.008 JLINK_WriteReg(R13 (SP), 0x20001000)
T7188 000:960.019 - 0.011ms returns 0
T7188 000:960.030 JLINK_WriteReg(R14, 0x20000001)
T7188 000:960.041 - 0.011ms returns 0
T7188 000:960.053 JLINK_WriteReg(R15 (PC), 0x2000007A)
T7188 000:960.064 - 0.011ms returns 0
T7188 000:960.076 JLINK_WriteReg(XPSR, 0x01000000)
T7188 000:960.087 - 0.011ms returns 0
T7188 000:960.099 JLINK_WriteReg(MSP, 0x20001000)
T7188 000:960.111 - 0.011ms returns 0
T7188 000:960.122 JLINK_WriteReg(PSP, 0x20001000)
T7188 000:960.133 - 0.011ms returns 0
T7188 000:960.144 JLINK_WriteReg(CFBP, 0x00000000)
T7188 000:960.154 - 0.010ms returns 0
T7188 000:960.166 JLINK_SetBPEx(Addr = 0x20000000, Type = 0xFFFFFFF2)
T7188 000:960.178 - 0.011ms returns 0x0000000B
T7188 000:960.189 JLINK_Go()
T7188 000:960.204   CPU_ReadMem(4 bytes @ 0xE0001000)
T7188 000:962.317 - 2.127ms 
T7188 000:962.331 JLINK_IsHalted()
T7188 000:962.564 - 0.232ms returns FALSE
T7188 000:962.577 JLINK_HasError()
T7188 000:967.112 JLINK_IsHalted()
T7188 000:969.173   CPU_ReadMem(2 bytes @ 0x20000000)
T7188 000:969.465 - 2.355ms returns TRUE
T7188 000:969.482 JLINK_ReadReg(R15 (PC))
T7188 000:969.494 - 0.012ms returns 0x20000000
T7188 000:969.507 JLINK_ClrBPEx(BPHandle = 0x0000000B)
T7188 000:969.520 - 0.012ms returns 0x00
T7188 000:969.532 JLINK_ReadReg(R0)
T7188 000:969.544 - 0.011ms returns 0x00000000
T7188 000:969.836 JLINK_HasError()
T7188 000:969.856 JLINK_WriteReg(R0, 0x08000280)
T7188 000:969.869 - 0.012ms returns 0
T7188 000:969.881 JLINK_WriteReg(R1, 0x00000080)
T7188 000:969.892 - 0.011ms returns 0
T7188 000:969.904 JLINK_WriteReg(R2, 0x00000000)
T7188 000:969.915 - 0.011ms returns 0
T7188 000:969.927 JLINK_WriteReg(R3, 0x00000000)
T7188 000:969.938 - 0.011ms returns 0
T7188 000:969.950 JLINK_WriteReg(R4, 0x00000000)
T7188 000:969.961 - 0.010ms returns 0
T7188 000:969.972 JLINK_WriteReg(R5, 0x00000000)
T7188 000:969.983 - 0.011ms returns 0
T7188 000:969.994 JLINK_WriteReg(R6, 0x00000000)
T7188 000:970.006 - 0.011ms returns 0
T7188 000:970.018 JLINK_WriteReg(R7, 0x00000000)
T7188 000:970.029 - 0.011ms returns 0
T7188 000:970.040 JLINK_WriteReg(R8, 0x00000000)
T7188 000:970.051 - 0.010ms returns 0
T7188 000:970.066 JLINK_WriteReg(R9, 0x2000013C)
T7188 000:970.078 - 0.011ms returns 0
T7188 000:970.089 JLINK_WriteReg(R10, 0x00000000)
T7188 000:970.101 - 0.011ms returns 0
T7188 000:970.112 JLINK_WriteReg(R11, 0x00000000)
T7188 000:970.123 - 0.011ms returns 0
T7188 000:970.134 JLINK_WriteReg(R12, 0x00000000)
T7188 000:970.146 - 0.011ms returns 0
T7188 000:970.157 JLINK_WriteReg(R13 (SP), 0x20001000)
T7188 000:970.169 - 0.011ms returns 0
T7188 000:970.180 JLINK_WriteReg(R14, 0x20000001)
T7188 000:970.191 - 0.011ms returns 0
T7188 000:970.203 JLINK_WriteReg(R15 (PC), 0x200000B0)
T7188 000:970.222 - 0.018ms returns 0
T7188 000:970.235 JLINK_WriteReg(XPSR, 0x01000000)
T7188 000:970.246 - 0.011ms returns 0
T7188 000:970.257 JLINK_WriteReg(MSP, 0x20001000)
T7188 000:970.275 - 0.017ms returns 0
T7188 000:970.286 JLINK_WriteReg(PSP, 0x20001000)
T7188 000:970.298 - 0.011ms returns 0
T7188 000:970.309 JLINK_WriteReg(CFBP, 0x00000000)
T7188 000:970.321 - 0.011ms returns 0
T7188 000:970.334 JLINK_SetBPEx(Addr = 0x20000000, Type = 0xFFFFFFF2)
T7188 000:970.346 - 0.012ms returns 0x0000000C
T7188 000:970.358 JLINK_Go()
T7188 000:970.375   CPU_ReadMem(4 bytes @ 0xE0001000)
T7188 000:972.339 - 1.980ms 
T7188 000:972.354 JLINK_IsHalted()
T7188 000:974.166   CPU_ReadMem(2 bytes @ 0x20000000)
T7188 000:974.501 - 2.146ms returns TRUE
T7188 000:974.534 JLINK_ReadReg(R15 (PC))
T7188 000:974.549 - 0.014ms returns 0x20000000
T7188 000:974.562 JLINK_ClrBPEx(BPHandle = 0x0000000C)
T7188 000:974.574 - 0.012ms returns 0x00
T7188 000:974.587 JLINK_ReadReg(R0)
T7188 000:974.598 - 0.011ms returns 0x00000001
T7188 000:974.611 JLINK_HasError()
T7188 000:974.624 JLINK_WriteReg(R0, 0x08000280)
T7188 000:974.637 - 0.012ms returns 0
T7188 000:974.650 JLINK_WriteReg(R1, 0x00000080)
T7188 000:974.661 - 0.011ms returns 0
T7188 000:974.673 JLINK_WriteReg(R2, 0x00000000)
T7188 000:974.685 - 0.011ms returns 0
T7188 000:974.697 JLINK_WriteReg(R3, 0x00000000)
T7188 000:974.709 - 0.012ms returns 0
T7188 000:974.722 JLINK_WriteReg(R4, 0x00000000)
T7188 000:974.734 - 0.012ms returns 0
T7188 000:974.746 JLINK_WriteReg(R5, 0x00000000)
T7188 000:974.758 - 0.012ms returns 0
T7188 000:974.770 JLINK_WriteReg(R6, 0x00000000)
T7188 000:974.782 - 0.012ms returns 0
T7188 000:974.794 JLINK_WriteReg(R7, 0x00000000)
T7188 000:974.806 - 0.012ms returns 0
T7188 000:974.819 JLINK_WriteReg(R8, 0x00000000)
T7188 000:974.831 - 0.012ms returns 0
T7188 000:974.848 JLINK_WriteReg(R9, 0x2000013C)
T7188 000:974.860 - 0.011ms returns 0
T7188 000:974.872 JLINK_WriteReg(R10, 0x00000000)
T7188 000:974.884 - 0.012ms returns 0
T7188 000:974.898 JLINK_WriteReg(R11, 0x00000000)
T7188 000:974.910 - 0.011ms returns 0
T7188 000:974.922 JLINK_WriteReg(R12, 0x00000000)
T7188 000:974.934 - 0.011ms returns 0
T7188 000:974.945 JLINK_WriteReg(R13 (SP), 0x20001000)
T7188 000:974.957 - 0.012ms returns 0
T7188 000:974.969 JLINK_WriteReg(R14, 0x20000001)
T7188 000:974.981 - 0.011ms returns 0
T7188 000:974.993 JLINK_WriteReg(R15 (PC), 0x2000007A)
T7188 000:975.005 - 0.012ms returns 0
T7188 000:975.066 JLINK_WriteReg(XPSR, 0x01000000)
T7188 000:975.096 - 0.030ms returns 0
T7188 000:975.114 JLINK_WriteReg(MSP, 0x20001000)
T7188 000:975.131 - 0.017ms returns 0
T7188 000:975.147 JLINK_WriteReg(PSP, 0x20001000)
T7188 000:975.164 - 0.017ms returns 0
T7188 000:975.181 JLINK_WriteReg(CFBP, 0x00000000)
T7188 000:975.198 - 0.016ms returns 0
T7188 000:975.216 JLINK_SetBPEx(Addr = 0x20000000, Type = 0xFFFFFFF2)
T7188 000:975.235 - 0.018ms returns 0x0000000D
T7188 000:975.250 JLINK_Go()
T7188 000:975.271   CPU_ReadMem(4 bytes @ 0xE0001000)
T7188 000:977.410 - 2.159ms 
T7188 000:977.428 JLINK_IsHalted()
T7188 000:977.677 - 0.249ms returns FALSE
T7188 000:977.704 JLINK_HasError()
T7188 000:979.704 JLINK_IsHalted()
T7188 000:979.941 - 0.236ms returns FALSE
T7188 000:979.956 JLINK_HasError()
T7188 000:981.938 JLINK_IsHalted()
T7188 000:983.991   CPU_ReadMem(2 bytes @ 0x20000000)
T7188 000:984.290 - 2.352ms returns TRUE
T7188 000:984.308 JLINK_ReadReg(R15 (PC))
T7188 000:984.320 - 0.012ms returns 0x20000000
T7188 000:984.334 JLINK_ClrBPEx(BPHandle = 0x0000000D)
T7188 000:984.346 - 0.011ms returns 0x00
T7188 000:984.360 JLINK_ReadReg(R0)
T7188 000:984.371 - 0.011ms returns 0x00000000
T7188 000:984.704 JLINK_HasError()
T7188 000:984.725 JLINK_WriteReg(R0, 0x08000300)
T7188 000:984.737 - 0.012ms returns 0
T7188 000:984.749 JLINK_WriteReg(R1, 0x00000080)
T7188 000:984.760 - 0.010ms returns 0
T7188 000:984.772 JLINK_WriteReg(R2, 0x00000000)
T7188 000:984.783 - 0.011ms returns 0
T7188 000:984.795 JLINK_WriteReg(R3, 0x00000000)
T7188 000:984.809 - 0.014ms returns 0
T7188 000:984.822 JLINK_WriteReg(R4, 0x00000000)
T7188 000:984.833 - 0.010ms returns 0
T7188 000:984.844 JLINK_WriteReg(R5, 0x00000000)
T7188 000:984.855 - 0.010ms returns 0
T7188 000:984.867 JLINK_WriteReg(R6, 0x00000000)
T7188 000:984.878 - 0.011ms returns 0
T7188 000:984.890 JLINK_WriteReg(R7, 0x00000000)
T7188 000:984.900 - 0.010ms returns 0
T7188 000:984.912 JLINK_WriteReg(R8, 0x00000000)
T7188 000:984.923 - 0.011ms returns 0
T7188 000:984.934 JLINK_WriteReg(R9, 0x2000013C)
T7188 000:984.945 - 0.010ms returns 0
T7188 000:984.957 JLINK_WriteReg(R10, 0x00000000)
T7188 000:984.968 - 0.011ms returns 0
T7188 000:984.979 JLINK_WriteReg(R11, 0x00000000)
T7188 000:984.990 - 0.010ms returns 0
T7188 000:985.001 JLINK_WriteReg(R12, 0x00000000)
T7188 000:985.012 - 0.010ms returns 0
T7188 000:985.024 JLINK_WriteReg(R13 (SP), 0x20001000)
T7188 000:985.035 - 0.011ms returns 0
T7188 000:985.046 JLINK_WriteReg(R14, 0x20000001)
T7188 000:985.057 - 0.011ms returns 0
T7188 000:985.068 JLINK_WriteReg(R15 (PC), 0x200000B0)
T7188 000:985.079 - 0.011ms returns 0
T7188 000:985.096 JLINK_WriteReg(XPSR, 0x01000000)
T7188 000:985.112 - 0.016ms returns 0
T7188 000:985.123 JLINK_WriteReg(MSP, 0x20001000)
T7188 000:985.134 - 0.010ms returns 0
T7188 000:985.148 JLINK_WriteReg(PSP, 0x20001000)
T7188 000:985.159 - 0.011ms returns 0
T7188 000:985.171 JLINK_WriteReg(CFBP, 0x00000000)
T7188 000:985.182 - 0.011ms returns 0
T7188 000:985.194 JLINK_SetBPEx(Addr = 0x20000000, Type = 0xFFFFFFF2)
T7188 000:985.206 - 0.012ms returns 0x0000000E
T7188 000:985.218 JLINK_Go()
T7188 000:985.233   CPU_ReadMem(4 bytes @ 0xE0001000)
T7188 000:987.173 - 1.955ms 
T7188 000:987.189 JLINK_IsHalted()
T7188 000:989.037   CPU_ReadMem(2 bytes @ 0x20000000)
T7188 000:989.314 - 2.125ms returns TRUE
T7188 000:989.327 JLINK_ReadReg(R15 (PC))
T7188 000:989.338 - 0.011ms returns 0x20000000
T7188 000:989.350 JLINK_ClrBPEx(BPHandle = 0x0000000E)
T7188 000:989.362 - 0.011ms returns 0x00
T7188 000:989.373 JLINK_ReadReg(R0)
T7188 000:989.385 - 0.011ms returns 0x00000001
T7188 000:989.397 JLINK_HasError()
T7188 000:989.409 JLINK_WriteReg(R0, 0x08000300)
T7188 000:989.421 - 0.011ms returns 0
T7188 000:989.433 JLINK_WriteReg(R1, 0x00000080)
T7188 000:989.444 - 0.011ms returns 0
T7188 000:989.456 JLINK_WriteReg(R2, 0x00000000)
T7188 000:989.473 - 0.016ms returns 0
T7188 000:989.484 JLINK_WriteReg(R3, 0x00000000)
T7188 000:989.496 - 0.011ms returns 0
T7188 000:989.508 JLINK_WriteReg(R4, 0x00000000)
T7188 000:989.519 - 0.011ms returns 0
T7188 000:989.531 JLINK_WriteReg(R5, 0x00000000)
T7188 000:989.543 - 0.011ms returns 0
T7188 000:989.555 JLINK_WriteReg(R6, 0x00000000)
T7188 000:989.567 - 0.011ms returns 0
T7188 000:989.579 JLINK_WriteReg(R7, 0x00000000)
T7188 000:989.591 - 0.011ms returns 0
T7188 000:989.603 JLINK_WriteReg(R8, 0x00000000)
T7188 000:989.615 - 0.011ms returns 0
T7188 000:989.627 JLINK_WriteReg(R9, 0x2000013C)
T7188 000:989.639 - 0.011ms returns 0
T7188 000:989.652 JLINK_WriteReg(R10, 0x00000000)
T7188 000:989.663 - 0.011ms returns 0
T7188 000:989.676 JLINK_WriteReg(R11, 0x00000000)
T7188 000:989.687 - 0.011ms returns 0
T7188 000:989.699 JLINK_WriteReg(R12, 0x00000000)
T7188 000:989.711 - 0.012ms returns 0
T7188 000:989.724 JLINK_WriteReg(R13 (SP), 0x20001000)
T7188 000:989.735 - 0.011ms returns 0
T7188 000:989.747 JLINK_WriteReg(R14, 0x20000001)
T7188 000:989.759 - 0.012ms returns 0
T7188 000:989.772 JLINK_WriteReg(R15 (PC), 0x2000007A)
T7188 000:989.783 - 0.011ms returns 0
T7188 000:989.796 JLINK_WriteReg(XPSR, 0x01000000)
T7188 000:989.809 - 0.013ms returns 0
T7188 000:989.821 JLINK_WriteReg(MSP, 0x20001000)
T7188 000:989.832 - 0.011ms returns 0
T7188 000:989.843 JLINK_WriteReg(PSP, 0x20001000)
T7188 000:989.854 - 0.011ms returns 0
T7188 000:989.866 JLINK_WriteReg(CFBP, 0x00000000)
T7188 000:989.877 - 0.011ms returns 0
T7188 000:989.889 JLINK_SetBPEx(Addr = 0x20000000, Type = 0xFFFFFFF2)
T7188 000:989.901 - 0.011ms returns 0x0000000F
T7188 000:989.913 JLINK_Go()
T7188 000:989.930   CPU_ReadMem(4 bytes @ 0xE0001000)
T7188 000:992.151 - 2.237ms 
T7188 000:992.184 JLINK_IsHalted()
T7188 000:992.450 - 0.266ms returns FALSE
T7188 000:992.465 JLINK_HasError()
T7188 000:994.560 JLINK_IsHalted()
T7188 000:994.926 - 0.368ms returns FALSE
T7188 000:994.941 JLINK_HasError()
T7188 000:996.857 JLINK_IsHalted()
T7188 000:998.737   CPU_ReadMem(2 bytes @ 0x20000000)
T7188 000:999.041 - 2.187ms returns TRUE
T7188 000:999.056 JLINK_ReadReg(R15 (PC))
T7188 000:999.070 - 0.013ms returns 0x20000000
T7188 000:999.082 JLINK_ClrBPEx(BPHandle = 0x0000000F)
T7188 000:999.093 - 0.012ms returns 0x00
T7188 000:999.105 JLINK_ReadReg(R0)
T7188 000:999.117 - 0.011ms returns 0x00000000
T7188 000:999.431 JLINK_HasError()
T7188 000:999.451 JLINK_WriteReg(R0, 0x08000380)
T7188 000:999.464 - 0.013ms returns 0
T7188 000:999.476 JLINK_WriteReg(R1, 0x00000080)
T7188 000:999.487 - 0.012ms returns 0
T7188 000:999.500 JLINK_WriteReg(R2, 0x00000000)
T7188 000:999.511 - 0.011ms returns 0
T7188 000:999.523 JLINK_WriteReg(R3, 0x00000000)
T7188 000:999.534 - 0.011ms returns 0
T7188 000:999.546 JLINK_WriteReg(R4, 0x00000000)
T7188 000:999.558 - 0.011ms returns 0
T7188 000:999.570 JLINK_WriteReg(R5, 0x00000000)
T7188 000:999.581 - 0.011ms returns 0
T7188 000:999.592 JLINK_WriteReg(R6, 0x00000000)
T7188 000:999.608 - 0.016ms returns 0
T7188 000:999.620 JLINK_WriteReg(R7, 0x00000000)
T7188 000:999.631 - 0.011ms returns 0
T7188 000:999.643 JLINK_WriteReg(R8, 0x00000000)
T7188 000:999.654 - 0.011ms returns 0
T7188 000:999.666 JLINK_WriteReg(R9, 0x2000013C)
T7188 000:999.677 - 0.011ms returns 0
T7188 000:999.689 JLINK_WriteReg(R10, 0x00000000)
T7188 000:999.700 - 0.010ms returns 0
T7188 000:999.711 JLINK_WriteReg(R11, 0x00000000)
T7188 000:999.722 - 0.011ms returns 0
T7188 000:999.733 JLINK_WriteReg(R12, 0x00000000)
